T8CE4 000:007.734   SEGGER J-Link V9.30a Log File
T8CE4 000:007.831   DLL Compiled: Mar 30 2026 10:51:58
T8CE4 000:007.835   Logging started @ 2026-05-14 11:58
T8CE4 000:007.839   Process: D:\KEIL5\UV4\UV4.exe
T8CE4 000:007.846 - 7.843ms 
T8CE4 000:007.853 JLINK_SetWarnOutHandler(...)
T8CE4 000:007.858 - 0.006ms 
T8CE4 000:007.864 JLINK_OpenEx(...)
T8CE4 000:012.347   Firmware: J-Link V9 compiled May  7 2021 16:26:12
T8CE4 000:015.237   Firmware: J-Link V9 compiled May  7 2021 16:26:12
T8CE4 000:015.368   Decompressing FW timestamp took 108 us
T8CE4 000:024.407   Hardware: V9.20
T8CE4 000:024.419   S/N: 4294967295
T8CE4 000:024.425   OEM: SEGGER
T8CE4 000:024.430   Feature(s): RDI, GDB, FlashDL, FlashBP, JFlash
T8CE4 000:026.932   Bootloader: (FW returned invalid version)
T8CE4 000:029.194   TELNET listener socket opened on port 19021
T8CE4 000:029.280   WEBSRV WEBSRV_Init(): Starting webserver thread(s)
T8CE4 000:029.385   WEBSRV Webserver running on local port 19080
T8CE4 000:029.464   Looking for J-Link GUI Server exe at: D:\KEIL5\ARM\Segger\JLinkGUIServer.exe
T8CE4 000:029.516   Looking for J-Link GUI Server exe at: D:\Program Files\SEGGER\JLink_V930a\JLinkGUIServer.exe
T8CE4 000:029.528   Forking J-Link GUI Server: D:\Program Files\SEGGER\JLink_V930a\JLinkGUIServer.exe
T8CE4 000:031.252   J-Link GUI Server info: "J-Link GUI server V9.30a "
T8CE4 000:031.478 - 23.607ms returns "O.K."
T8CE4 000:031.501 JLINK_GetEmuCaps()
T8CE4 000:031.511 - 0.007ms returns 0xB9FF7BBF
T8CE4 000:031.519 JLINK_TIF_GetAvailable(...)
T8CE4 000:031.944 - 0.424ms 
T8CE4 000:031.961 JLINK_SetErrorOutHandler(...)
T8CE4 000:031.966 - 0.005ms 
T8CE4 000:031.995 JLINK_ExecCommand("ProjectFile = "E:\STM32F407_Creat\ARMageddon407\Projects\MDK-ARM\JLinkSettings.ini"", ...). 
T8CE4 000:060.844   Ref file found at: D:\KEIL5\ARM\Segger\JLinkDevices.ref
T8CE4 000:060.915   REF file references invalid XML file: D:\Program Files\SEGGER\JLink_V930a\JLinkDevices.xml
T8CE4 000:062.900   Device "STM32F407ZG" selected.
T8CE4 000:063.153 - 31.160ms returns 0x00
T8CE4 000:063.198 JLINK_ExecCommand("Device = STM32F407ZGTx", ...). 
T8CE4 000:063.712   Device "STM32F407ZG" selected.
T8CE4 000:064.033 - 0.834ms returns 0x00
T8CE4 000:064.048   ERROR: Unknown command
T8CE4 000:064.056 JLINK_GetHardwareVersion()
T8CE4 000:064.060 - 0.005ms returns 92000
T8CE4 000:064.065 JLINK_GetDLLVersion()
T8CE4 000:064.069 - 0.003ms returns 93001
T8CE4 000:064.075 JLINK_GetOEMString(...)
T8CE4 000:064.080 JLINK_GetFirmwareString(...)
T8CE4 000:064.084 - 0.004ms 
T8CE4 000:064.098 JLINK_GetDLLVersion()
T8CE4 000:064.102 - 0.004ms returns 93001
T8CE4 000:064.107 JLINK_GetCompileDateTime()
T8CE4 000:064.113 - 0.006ms 
T8CE4 000:064.120 JLINK_GetFirmwareString(...)
T8CE4 000:064.124 - 0.003ms 
T8CE4 000:064.131 JLINK_GetHardwareVersion()
T8CE4 000:064.135 - 0.003ms returns 92000
T8CE4 000:064.142 JLINK_GetSN()
T8CE4 000:064.146 - 0.004ms returns -1
T8CE4 000:064.151 JLINK_GetOEMString(...)
T8CE4 000:064.161 JLINK_TIF_Select(JLINKARM_TIF_JTAG)
T8CE4 000:066.504 - 2.342ms returns 0x00
T8CE4 000:066.516 JLINK_HasError()
T8CE4 000:066.525 JLINK_SetSpeed(25000)
T8CE4 000:066.824 - 0.299ms 
T8CE4 000:066.830 JLINK_GetIdData(pIdData)
T8CE4 000:067.251   InitTarget() start
T8CE4 000:067.257    J-Link Script File: Executing InitTarget()
T8CE4 000:067.698   JTAG selected. Identifying JTAG Chain...
T8CE4 000:068.979   TotalIRLen = 9, IRPrint = 0x0011
T8CE4 000:069.855   JTAG chain detection found 2 devices:
T8CE4 000:069.874    #0 Id: 0x4BA00477, IRLen: 04, CoreSight JTAG-DP
T8CE4 000:069.882    #1 Id: 0x06413041, IRLen: 05, STM32 Boundary Scan
T8CE4 000:069.893   JTAG Chain Identified. Connecting to DAP TAP...
T8CE4 000:069.902   Successfully connected to selected DAP TAP.
T8CE4 000:072.598   DAP initialized successfully.
T8CE4 000:083.038   InitTarget() end - Took 15.7ms
T8CE4 000:084.236   TotalIRLen = 9, IRPrint = 0x0011
T8CE4 000:085.034   JTAG chain detection found 2 devices:
T8CE4 000:085.055    #0 Id: 0x4BA00477, IRLen: 04, CoreSight JTAG-DP
T8CE4 000:085.115    #1 Id: 0x06413041, IRLen: 05, STM32 Boundary Scan
T8CE4 000:086.466   DPv0 detected
T8CE4 000:086.489   Scanning AP map to find all available APs
T8CE4 000:087.407   AP[1]: Stopped AP scan as end of AP map has been reached
T8CE4 000:087.424   AP[0]: AHB-AP (IDR: 0x24770011, ADDR: 0x00000000)
T8CE4 000:087.433   Iterating through AP map to find AHB-AP to use
T8CE4 000:088.499   AP[0]: Core found
T8CE4 000:088.511   AP[0]: AHB-AP ROM base: 0xE00FF000
T8CE4 000:089.140   CPUID register: 0x410FC241. Implementer code: 0x41 (ARM)
T8CE4 000:089.152   Found Cortex-M4 r0p1, Little endian.
T8CE4 000:089.882   -- Max. mem block: 0x00010E60
T8CE4 000:091.163   CPU_ReadMem(4 bytes @ 0xE000EDF0)
T8CE4 000:091.641   CPU_ReadMem(4 bytes @ 0xE0002000)
T8CE4 000:092.197   FPUnit: 6 code (BP) slots and 2 literal slots
T8CE4 000:092.205   CPU_ReadMem(4 bytes @ 0xE000EDFC)
T8CE4 000:092.667   CPU_WriteMem(4 bytes @ 0xE000EDFC)
T8CE4 000:093.151   CPU_ReadMem(4 bytes @ 0xE0001000)
T8CE4 000:093.625   CPU_WriteMem(4 bytes @ 0xE0001000)
T8CE4 000:094.085   CPU_ReadMem(4 bytes @ 0xE000ED88)
T8CE4 000:094.467   CPU_WriteMem(4 bytes @ 0xE000ED88)
T8CE4 000:095.056   CPU_ReadMem(4 bytes @ 0xE000ED88)
T8CE4 000:095.458   CPU_WriteMem(4 bytes @ 0xE000ED88)
T8CE4 000:095.870   CoreSight components:
T8CE4 000:095.879   ROMTbl[0] @ E00FF000
T8CE4 000:095.885   CPU_ReadMem(64 bytes @ 0xE00FF000)
T8CE4 000:096.433   CPU_ReadMem(32 bytes @ 0xE000EFE0)
T8CE4 000:096.952   [0][0]: E000E000 CID B105E00D PID 000BB00C SCS-M7
T8CE4 000:096.959   CPU_ReadMem(32 bytes @ 0xE0001FE0)
T8CE4 000:097.507   [0][1]: E0001000 CID B105E00D PID 003BB002 DWT
T8CE4 000:097.513   CPU_ReadMem(32 bytes @ 0xE0002FE0)
T8CE4 000:098.295   [0][2]: E0002000 CID B105E00D PID 002BB003 FPB
T8CE4 000:098.302   CPU_ReadMem(32 bytes @ 0xE0000FE0)
T8CE4 000:098.857   [0][3]: E0000000 CID B105E00D PID 003BB001 ITM
T8CE4 000:098.864   CPU_ReadMem(32 bytes @ 0xE0040FE0)
T8CE4 000:099.433   [0][4]: E0040000 CID B105900D PID 000BB9A1 TPIU
T8CE4 000:099.439   CPU_ReadMem(32 bytes @ 0xE0041FE0)
T8CE4 000:100.012   [0][5]: E0041000 CID B105900D PID 000BB925 ETM
T8CE4 000:100.039   pIdData->ScanLen=9
T8CE4 000:100.045   pIdData->NumDevices=2
T8CE4 000:100.050   pIdData->aId[0]=0x4BA00477
T8CE4 000:100.056   pIdData->aIrRead[0]=0
T8CE4 000:100.062   pIdData->aScanLen[0]=0
T8CE4 000:100.067   pIdData->aScanRead[0]=0
T8CE4 000:100.073 - 33.243ms 
T8CE4 000:100.084 JLINK_JTAG_GetDeviceID(DeviceIndex = 0)
T8CE4 000:100.089 - 0.005ms returns 1268778103
T8CE4 000:100.094 JLINK_JTAG_GetDeviceInfo(DeviceIndex = 0)
T8CE4 000:100.097 - 0.004ms returns 0
T8CE4 000:100.103 JLINK_JTAG_GetDeviceID(DeviceIndex = 1)
T8CE4 000:100.107 - 0.004ms returns 104935489
T8CE4 000:100.112 JLINK_JTAG_GetDeviceInfo(DeviceIndex = 1)
T8CE4 000:100.116 - 0.004ms returns 0
T8CE4 000:100.123 JLINK_GetDLLVersion()
T8CE4 000:100.127 - 0.004ms returns 93001
T8CE4 000:100.163 JLINK_CORE_GetFound()
T8CE4 000:100.167 - 0.004ms returns 0xE0000FF
T8CE4 000:100.173 JLINK_GetDebugInfo(0x100 = JLINKARM_ROM_TABLE_ADDR_INDEX)
T8CE4 000:100.178   Value=0xE00FF000
T8CE4 000:100.184 - 0.011ms returns 0
T8CE4 000:100.192 JLINK_GetDebugInfo(0x100 = JLINKARM_ROM_TABLE_ADDR_INDEX)
T8CE4 000:100.196   Value=0xE00FF000
T8CE4 000:100.202 - 0.009ms returns 0
T8CE4 000:100.206 JLINK_GetDebugInfo(0x101 = JLINKARM_DEBUG_INFO_ETM_ADDR_INDEX)
T8CE4 000:100.210   Value=0xE0041000
T8CE4 000:100.215 - 0.009ms returns 0
T8CE4 000:100.222 JLINK_ReadMemEx(0xE0041FD0, 0x20 Bytes, Flags = 0x02000004)
T8CE4 000:100.235   CPU_ReadMem(32 bytes @ 0xE0041FD0)
T8CE4 000:100.790   Data:  04 00 00 00 00 00 00 00 00 00 00 00 00 00 00 00 ...
T8CE4 000:100.797 - 0.574ms returns 32 (0x20)
T8CE4 000:100.802 JLINK_GetDebugInfo(0x102 = JLINKARM_DEBUG_INFO_MTB_ADDR_INDEX)
T8CE4 000:100.806   Value=0x00000000
T8CE4 000:100.811 - 0.009ms returns 0
T8CE4 000:100.816 JLINK_GetDebugInfo(0x103 = JLINKARM_DEBUG_INFO_TPIU_ADDR_INDEX)
T8CE4 000:100.820   Value=0xE0040000
T8CE4 000:100.825 - 0.009ms returns 0
T8CE4 000:100.836 JLINK_GetDebugInfo(0x104 = JLINKARM_DEBUG_INFO_ITM_ADDR_INDEX)
T8CE4 000:100.839   Value=0xE0000000
T8CE4 000:100.845 - 0.009ms returns 0
T8CE4 000:100.849 JLINK_GetDebugInfo(0x105 = JLINKARM_DEBUG_INFO_DWT_ADDR_INDEX)
T8CE4 000:100.853   Value=0xE0001000
T8CE4 000:100.859 - 0.009ms returns 0
T8CE4 000:100.863 JLINK_GetDebugInfo(0x106 = JLINKARM_DEBUG_INFO_FPB_ADDR_INDEX)
T8CE4 000:100.867   Value=0xE0002000
T8CE4 000:100.872 - 0.009ms returns 0
T8CE4 000:100.877 JLINK_GetDebugInfo(0x107 = JLINKARM_DEBUG_INFO_NVIC_ADDR_INDEX)
T8CE4 000:100.881   Value=0xE000E000
T8CE4 000:100.886 - 0.009ms returns 0
T8CE4 000:100.891 JLINK_GetDebugInfo(0x10C = JLINKARM_DEBUG_INFO_DBG_ADDR_INDEX)
T8CE4 000:100.894   Value=0xE000EDF0
T8CE4 000:100.900 - 0.009ms returns 0
T8CE4 000:100.904 JLINK_GetDebugInfo(0x01 = Unknown)
T8CE4 000:100.908   Value=0x00000001
T8CE4 000:100.913 - 0.009ms returns 0
T8CE4 000:100.918 JLINK_ReadMemU32(0xE000ED00, 0x1 Items)
T8CE4 000:100.923   CPU_ReadMem(4 bytes @ 0xE000ED00)
T8CE4 000:101.389   Data:  41 C2 0F 41
T8CE4 000:101.398   Debug reg: CPUID
T8CE4 000:101.403 - 0.485ms returns 1 (0x1)
T8CE4 000:101.409 JLINK_GetDebugInfo(0x10F = JLINKARM_DEBUG_INFO_HAS_CORTEX_M_SECURITY_EXT_INDEX)
T8CE4 000:101.413   Value=0x00000000
T8CE4 000:101.418 - 0.009ms returns 0
T8CE4 000:101.423 JLINK_HasError()
T8CE4 000:101.429 JLINK_SetResetType(JLINKARM_CM3_RESET_TYPE_NORMAL)
T8CE4 000:101.433 - 0.004ms returns JLINKARM_CM3_RESET_TYPE_NORMAL
T8CE4 000:101.439 JLINK_Reset()
T8CE4 000:101.446   JLINK_GetResetTypeDesc
T8CE4 000:101.451   - 0.004ms 
T8CE4 000:101.461   Reset type: NORMAL (https://kb.segger.com/J-Link_Reset_Strategies)
T8CE4 000:101.467   CPU is running
T8CE4 000:101.473   CPU_WriteMem(4 bytes @ 0xE000EDF0)
T8CE4 000:101.957   CPU is running
T8CE4 000:101.965   CPU_WriteMem(4 bytes @ 0xE000EDFC)
T8CE4 000:102.403   Reset: Halt core after reset via DEMCR.VC_CORERESET.
T8CE4 000:102.895   Reset: Reset device via AIRCR.SYSRESETREQ.
T8CE4 000:102.914   CPU is running
T8CE4 000:102.925   CPU_WriteMem(4 bytes @ 0xE000ED0C)
T8CE4 000:155.667   CPU_ReadMem(4 bytes @ 0xE000EDF0)
T8CE4 000:156.617   CPU_ReadMem(4 bytes @ 0xE000EDF0)
T8CE4 000:159.927   CPU_WriteMem(4 bytes @ 0xE000EDFC)
T8CE4 000:167.309   CPU_ReadMem(4 bytes @ 0xE000EDF0)
T8CE4 000:170.673   CPU_WriteMem(4 bytes @ 0xE000EDFC)
T8CE4 000:171.329   CPU_WriteMem(4 bytes @ 0xE0001028)
T8CE4 000:172.236   CPU_WriteMem(4 bytes @ 0xE0001038)
T8CE4 000:172.940   CPU_WriteMem(4 bytes @ 0xE0001048)
T8CE4 000:173.639   CPU_WriteMem(4 bytes @ 0xE0001058)
T8CE4 000:174.278   CPU_WriteMem(4 bytes @ 0xE0002000)
T8CE4 000:174.824   CPU_ReadMem(4 bytes @ 0xE000EDFC)
T8CE4 000:175.372   CPU_ReadMem(4 bytes @ 0xE0001000)
T8CE4 000:175.934 - 74.495ms 
T8CE4 000:175.952 JLINK_HasError()
T8CE4 000:176.058 JLINK_ReadReg(R15 (PC))
T8CE4 000:176.070 - 0.016ms returns 0x08000314
T8CE4 000:176.076 JLINK_ReadReg(XPSR)
T8CE4 000:176.080 - 0.004ms returns 0x01000000
T8CE4 000:176.085 JLINK_Halt()
T8CE4 000:176.089 - 0.003ms returns 0x00
T8CE4 000:176.094 JLINK_ReadMemU32(0xE000EDF0, 0x1 Items)
T8CE4 000:176.103   CPU_ReadMem(4 bytes @ 0xE000EDF0)
T8CE4 000:176.624   Data:  03 00 03 00
T8CE4 000:176.635   Debug reg: DHCSR
T8CE4 000:176.641 - 0.546ms returns 1 (0x1)
T8CE4 000:176.651 JLINK_WriteU32(0xE000EDF0, 0xA05F0003)
T8CE4 000:176.656   Debug reg: DHCSR
T8CE4 000:176.840   CPU_WriteMem(4 bytes @ 0xE000EDF0)
T8CE4 000:177.487 - 0.835ms returns 0 (0x00000000)
T8CE4 000:177.498 JLINK_WriteU32(0xE000EDFC, 0x01000000)
T8CE4 000:177.503   Debug reg: DEMCR
T8CE4 000:177.512   CPU_WriteMem(4 bytes @ 0xE000EDFC)
T8CE4 000:178.159 - 0.660ms returns 0 (0x00000000)
T8CE4 000:178.200 JLINK_GetHWStatus(...)
T8CE4 000:178.699 - 0.498ms returns 0
T8CE4 000:178.725 JLINK_GetNumBPUnits(Type = 0xFFFFFF00)
T8CE4 000:178.730 - 0.005ms returns 0x06
T8CE4 000:178.735 JLINK_GetNumBPUnits(Type = 0xF0)
T8CE4 000:178.739 - 0.004ms returns 0x2000
T8CE4 000:178.744 JLINK_GetNumWPUnits()
T8CE4 000:178.751 - 0.007ms returns 4
T8CE4 000:178.765 JLINK_GetSpeed()
T8CE4 000:178.769 - 0.004ms returns 15000
T8CE4 000:178.778 JLINK_ReadMemU32(0xE000E004, 0x1 Items)
T8CE4 000:178.786   CPU_ReadMem(4 bytes @ 0xE000E004)
T8CE4 000:179.346   Data:  02 00 00 00
T8CE4 000:179.358 - 0.579ms returns 1 (0x1)
T8CE4 000:179.364 JLINK_ReadMemU32(0xE000E004, 0x1 Items)
T8CE4 000:179.371   CPU_ReadMem(4 bytes @ 0xE000E004)
T8CE4 000:179.955   Data:  02 00 00 00
T8CE4 000:179.967 - 0.602ms returns 1 (0x1)
T8CE4 000:179.974 JLINK_WriteMemEx(0xE0001000, 0x0000001C Bytes, Flags = 0x02000004)
T8CE4 000:179.978   Data:  01 00 00 00 00 00 00 00 00 00 00 00 00 00 00 00 ...
T8CE4 000:179.988   CPU_WriteMem(28 bytes @ 0xE0001000)
T8CE4 000:180.572 - 0.597ms returns 0x1C
T8CE4 000:180.583 JLINK_HasError()
T8CE4 000:180.589 JLINK_ReadReg(R15 (PC))
T8CE4 000:180.594 - 0.004ms returns 0x08000314
T8CE4 000:180.598 JLINK_ReadReg(XPSR)
T8CE4 000:180.602 - 0.003ms returns 0x01000000
T8CE4 000:182.645 JLINK_ReadMemEx(0xE0001004, 0x4 Bytes, Flags = 0x02000000)
T8CE4 000:182.657   Data:  00 00 00 00
T8CE4 000:182.663   Debug reg: DWT_CYCCNT
T8CE4 000:182.669 - 0.023ms returns 4 (0x4)
T8CE4 000:265.028 JLINK_HasError()
T8CE4 000:265.054 JLINK_SetResetType(JLINKARM_CM3_RESET_TYPE_NORMAL)
T8CE4 000:265.060 - 0.005ms returns JLINKARM_CM3_RESET_TYPE_NORMAL
T8CE4 000:265.064 JLINK_Reset()
T8CE4 000:265.075   JLINK_GetResetTypeDesc
T8CE4 000:265.079   - 0.004ms 
T8CE4 000:265.093   Reset type: NORMAL (https://kb.segger.com/J-Link_Reset_Strategies)
T8CE4 000:265.100   CPU_WriteMem(4 bytes @ 0xE000EDF0)
T8CE4 000:265.878   CPU_WriteMem(4 bytes @ 0xE000EDFC)
T8CE4 000:266.554   Reset: Halt core after reset via DEMCR.VC_CORERESET.
T8CE4 000:267.308   Reset: Reset device via AIRCR.SYSRESETREQ.
T8CE4 000:267.315   CPU_WriteMem(4 bytes @ 0xE000ED0C)
T8CE4 000:321.074   CPU_ReadMem(4 bytes @ 0xE000EDF0)
T8CE4 000:321.800   CPU_ReadMem(4 bytes @ 0xE000EDF0)
T8CE4 000:322.709   CPU_WriteMem(4 bytes @ 0xE000EDFC)
T8CE4 000:329.526   CPU_ReadMem(4 bytes @ 0xE000EDF0)
T8CE4 000:332.995   CPU_WriteMem(4 bytes @ 0xE000EDFC)
T8CE4 000:333.835   CPU_WriteMem(4 bytes @ 0xE0001028)
T8CE4 000:334.703   CPU_WriteMem(4 bytes @ 0xE0001038)
T8CE4 000:335.539   CPU_WriteMem(4 bytes @ 0xE0001048)
T8CE4 000:336.438   CPU_WriteMem(4 bytes @ 0xE0001058)
T8CE4 000:337.064   CPU_WriteMem(4 bytes @ 0xE0002000)
T8CE4 000:337.784   CPU_ReadMem(4 bytes @ 0xE000EDFC)
T8CE4 000:338.393   CPU_ReadMem(4 bytes @ 0xE0001000)
T8CE4 000:338.987 - 73.920ms 
T8CE4 000:339.126 JLINK_HasError()
T8CE4 000:339.133 JLINK_ReadReg(R15 (PC))
T8CE4 000:339.138 - 0.005ms returns 0x08000314
T8CE4 000:339.143 JLINK_ReadReg(XPSR)
T8CE4 000:339.147 - 0.004ms returns 0x01000000
T8CE4 000:339.492 JLINK_ReadMemEx(0x08000314, 0x3C Bytes, Flags = 0x02000000)
T8CE4 000:339.505   CPU_ReadMem(128 bytes @ 0x08000300)
T8CE4 000:340.548    -- Updating C cache (128 bytes @ 0x08000300)
T8CE4 000:340.559    -- Read from C cache (60 bytes @ 0x08000314)
T8CE4 000:340.567   Data:  0C 48 01 68 41 F4 70 01 01 60 0B 48 80 47 0B 48 ...
T8CE4 000:340.573 - 1.081ms returns 60 (0x3C)
T8CE4 000:340.580 JLINK_ReadMemEx(0x08000314, 0x2 Bytes, Flags = 0x02000000)
T8CE4 000:340.585    -- Read from C cache (2 bytes @ 0x08000314)
T8CE4 000:340.591   Data:  0C 48
T8CE4 000:340.597 - 0.017ms returns 2 (0x2)
T8CE4 000:340.655 JLINK_ReadMemEx(0x08000316, 0x2 Bytes, Flags = 0x02000000)
T8CE4 000:340.660    -- Read from C cache (2 bytes @ 0x08000316)
T8CE4 000:340.665   Data:  01 68
T8CE4 000:340.671 - 0.016ms returns 2 (0x2)
T8CE4 000:902.324 JLINK_ReadMemEx(0x08000316, 0x2 Bytes, Flags = 0x02000000)
T8CE4 000:902.353    -- Read from C cache (2 bytes @ 0x08000316)
T8CE4 000:902.360   Data:  01 68
T8CE4 000:902.367 - 0.044ms returns 2 (0x2)
T8CE4 000:902.373 JLINK_ReadMemEx(0x08000318, 0x3C Bytes, Flags = 0x02000000)
T8CE4 000:902.377    -- Read from C cache (60 bytes @ 0x08000318)
T8CE4 000:902.384   Data:  41 F4 70 01 01 60 0B 48 80 47 0B 48 00 47 FE E7 ...
T8CE4 000:902.389 - 0.016ms returns 60 (0x3C)
T8CE4 000:902.458 JLINK_ReadMemEx(0x08000318, 0x2 Bytes, Flags = 0x02000000)
T8CE4 000:902.463    -- Read from C cache (2 bytes @ 0x08000318)
T8CE4 000:902.469   Data:  41 F4
T8CE4 000:902.474 - 0.016ms returns 2 (0x2)
T8CE4 001:136.235 JLINK_HasError()
T8CE4 001:136.259 JLINK_ReadReg(R0)
T8CE4 001:136.884 - 0.627ms returns 0x00000000
T8CE4 001:136.897 JLINK_ReadReg(R1)
T8CE4 001:136.901 - 0.004ms returns 0x00000000
T8CE4 001:136.906 JLINK_ReadReg(R2)
T8CE4 001:136.910 - 0.003ms returns 0x00000000
T8CE4 001:136.914 JLINK_ReadReg(R3)
T8CE4 001:136.918 - 0.004ms returns 0x00000000
T8CE4 001:136.923 JLINK_ReadReg(R4)
T8CE4 001:136.928 - 0.003ms returns 0x00000000
T8CE4 001:136.932 JLINK_ReadReg(R5)
T8CE4 001:136.937 - 0.004ms returns 0x00000000
T8CE4 001:136.941 JLINK_ReadReg(R6)
T8CE4 001:136.948 - 0.006ms returns 0x00000000
T8CE4 001:136.952 JLINK_ReadReg(R7)
T8CE4 001:136.956 - 0.003ms returns 0x00000000
T8CE4 001:136.960 JLINK_ReadReg(R8)
T8CE4 001:136.964 - 0.003ms returns 0x00000000
T8CE4 001:136.968 JLINK_ReadReg(R9)
T8CE4 001:136.972 - 0.003ms returns 0x00000000
T8CE4 001:136.976 JLINK_ReadReg(R10)
T8CE4 001:136.980 - 0.003ms returns 0x00000000
T8CE4 001:136.984 JLINK_ReadReg(R11)
T8CE4 001:136.988 - 0.003ms returns 0x00000000
T8CE4 001:136.992 JLINK_ReadReg(R12)
T8CE4 001:136.996 - 0.003ms returns 0x00000000
T8CE4 001:137.000 JLINK_ReadReg(R13 (SP))
T8CE4 001:137.004 - 0.004ms returns 0x2001B6D8
T8CE4 001:137.009 JLINK_ReadReg(R14)
T8CE4 001:137.012 - 0.003ms returns 0xFFFFFFFF
T8CE4 001:137.017 JLINK_ReadReg(R15 (PC))
T8CE4 001:137.021 - 0.003ms returns 0x08000314
T8CE4 001:137.025 JLINK_ReadReg(XPSR)
T8CE4 001:137.029 - 0.003ms returns 0x01000000
T8CE4 001:137.033 JLINK_ReadReg(MSP)
T8CE4 001:137.037 - 0.003ms returns 0x2001B6D8
T8CE4 001:137.041 JLINK_ReadReg(PSP)
T8CE4 001:137.045 - 0.003ms returns 0x00000000
T8CE4 001:137.049 JLINK_ReadReg(CFBP)
T8CE4 001:137.053 - 0.003ms returns 0x00000000
T8CE4 001:137.057 JLINK_ReadReg(FPSCR)
T8CE4 001:139.377 - 2.319ms returns 0x00000000
T8CE4 001:139.383 JLINK_ReadReg(FPS0)
T8CE4 001:139.387 - 0.004ms returns 0x00000000
T8CE4 001:139.392 JLINK_ReadReg(FPS1)
T8CE4 001:139.396 - 0.004ms returns 0x00000000
T8CE4 001:139.400 JLINK_ReadReg(FPS2)
T8CE4 001:139.404 - 0.003ms returns 0x00000000
T8CE4 001:139.409 JLINK_ReadReg(FPS3)
T8CE4 001:139.413 - 0.003ms returns 0x00000000
T8CE4 001:139.417 JLINK_ReadReg(FPS4)
T8CE4 001:139.421 - 0.003ms returns 0x00000000
T8CE4 001:139.426 JLINK_ReadReg(FPS5)
T8CE4 001:139.429 - 0.003ms returns 0x00000000
T8CE4 001:139.434 JLINK_ReadReg(FPS6)
T8CE4 001:139.438 - 0.003ms returns 0x00000000
T8CE4 001:139.442 JLINK_ReadReg(FPS7)
T8CE4 001:139.446 - 0.003ms returns 0x00000000
T8CE4 001:139.450 JLINK_ReadReg(FPS8)
T8CE4 001:139.454 - 0.003ms returns 0x00000000
T8CE4 001:139.459 JLINK_ReadReg(FPS9)
T8CE4 001:139.463 - 0.003ms returns 0x00000000
T8CE4 001:139.467 JLINK_ReadReg(FPS10)
T8CE4 001:139.471 - 0.003ms returns 0x00000000
T8CE4 001:139.475 JLINK_ReadReg(FPS11)
T8CE4 001:139.479 - 0.004ms returns 0x00000000
T8CE4 001:139.484 JLINK_ReadReg(FPS12)
T8CE4 001:139.488 - 0.003ms returns 0x00000000
T8CE4 001:139.493 JLINK_ReadReg(FPS13)
T8CE4 001:139.496 - 0.003ms returns 0x00000000
T8CE4 001:139.501 JLINK_ReadReg(FPS14)
T8CE4 001:139.505 - 0.003ms returns 0x00000000
T8CE4 001:139.509 JLINK_ReadReg(FPS15)
T8CE4 001:139.513 - 0.003ms returns 0x00000000
T8CE4 001:139.517 JLINK_ReadReg(FPS16)
T8CE4 001:139.521 - 0.004ms returns 0x00000000
T8CE4 001:139.526 JLINK_ReadReg(FPS17)
T8CE4 001:139.530 - 0.003ms returns 0x00000000
T8CE4 001:139.534 JLINK_ReadReg(FPS18)
T8CE4 001:139.538 - 0.003ms returns 0x00000000
T8CE4 001:139.542 JLINK_ReadReg(FPS19)
T8CE4 001:139.546 - 0.003ms returns 0x00000000
T8CE4 001:139.551 JLINK_ReadReg(FPS20)
T8CE4 001:139.554 - 0.003ms returns 0x00000000
T8CE4 001:139.559 JLINK_ReadReg(FPS21)
T8CE4 001:139.563 - 0.003ms returns 0x00000000
T8CE4 001:139.567 JLINK_ReadReg(FPS22)
T8CE4 001:139.571 - 0.003ms returns 0x00000000
T8CE4 001:139.579 JLINK_ReadReg(FPS23)
T8CE4 001:139.585 - 0.005ms returns 0x00000000
T8CE4 001:139.589 JLINK_ReadReg(FPS24)
T8CE4 001:139.593 - 0.003ms returns 0x00000000
T8CE4 001:139.597 JLINK_ReadReg(FPS25)
T8CE4 001:139.601 - 0.003ms returns 0x00000000
T8CE4 001:139.606 JLINK_ReadReg(FPS26)
T8CE4 001:139.610 - 0.003ms returns 0x00000000
T8CE4 001:139.614 JLINK_ReadReg(FPS27)
T8CE4 001:139.618 - 0.003ms returns 0x00000000
T8CE4 001:139.622 JLINK_ReadReg(FPS28)
T8CE4 001:139.626 - 0.003ms returns 0x00000000
T8CE4 001:139.631 JLINK_ReadReg(FPS29)
T8CE4 001:139.634 - 0.003ms returns 0x00000000
T8CE4 001:139.639 JLINK_ReadReg(FPS30)
T8CE4 001:139.643 - 0.003ms returns 0x00000000
T8CE4 001:139.647 JLINK_ReadReg(FPS31)
T8CE4 001:139.651 - 0.003ms returns 0x00000000
T8CE4 001:159.401 JLINK_ReadMemEx(0x20000350, 0x4 Bytes, Flags = 0x02000000)
T8CE4 001:159.429   CPU_ReadMem(64 bytes @ 0x20000340)
T8CE4 001:160.552    -- Updating C cache (64 bytes @ 0x20000340)
T8CE4 001:160.558    -- Read from C cache (4 bytes @ 0x20000350)
T8CE4 001:160.564   Data:  00 00 00 68
T8CE4 001:160.571 - 1.169ms returns 4 (0x4)
T8CE4 001:164.797 JLINK_ReadMemEx(0x20000350, 0x4 Bytes, Flags = 0x02000000)
T8CE4 001:164.824    -- Read from C cache (4 bytes @ 0x20000350)
T8CE4 001:164.830   Data:  00 00 00 68
T8CE4 001:164.837 - 0.040ms returns 4 (0x4)
T8CE4 001:164.858 JLINK_ReadMemEx(0x20000350, 0x4 Bytes, Flags = 0x02000000)
T8CE4 001:164.863    -- Read from C cache (4 bytes @ 0x20000350)
T8CE4 001:164.868   Data:  00 00 00 68
T8CE4 001:164.874 - 0.016ms returns 4 (0x4)
T8CE4 001:164.897 JLINK_ReadMemEx(0x68000000, 0x20 Bytes, Flags = 0x02000000)
T8CE4 001:164.909   CPU_ReadMem(32 bytes @ 0x68000000)
T8CE4 001:165.664   Data:  00 00 00 00 00 00 00 00 00 00 00 00 00 00 00 00 ...
T8CE4 001:165.671 - 0.774ms returns 32 (0x20)
T8CE4 001:179.221 JLINK_ReadMemEx(0x20000350, 0x4 Bytes, Flags = 0x02000000)
T8CE4 001:179.248    -- Read from C cache (4 bytes @ 0x20000350)
T8CE4 001:179.254   Data:  00 00 00 68
T8CE4 001:179.260 - 0.040ms returns 4 (0x4)
T8CE4 001:179.281 JLINK_ReadMemEx(0x20000350, 0x4 Bytes, Flags = 0x02000000)
T8CE4 001:179.286    -- Read from C cache (4 bytes @ 0x20000350)
T8CE4 001:179.291   Data:  00 00 00 68
T8CE4 001:179.296 - 0.015ms returns 4 (0x4)
T8CE4 001:179.312 JLINK_ReadMemEx(0x20000350, 0x4 Bytes, Flags = 0x02000000)
T8CE4 001:179.316    -- Read from C cache (4 bytes @ 0x20000350)
T8CE4 001:179.322   Data:  00 00 00 68
T8CE4 001:179.327 - 0.015ms returns 4 (0x4)
T8CE4 001:179.348 JLINK_ReadMemEx(0x68000000, 0x20 Bytes, Flags = 0x02000000)
T8CE4 001:179.360   CPU_ReadMem(32 bytes @ 0x68000000)
T8CE4 001:180.164   Data:  00 00 00 00 00 00 00 00 00 00 00 00 00 00 00 00 ...
T8CE4 001:180.171 - 0.822ms returns 32 (0x20)
T8CE4 001:183.284 JLINK_ReadMemEx(0x2000DE88, 0x20 Bytes, Flags = 0x02000000)
T8CE4 001:183.310   CPU_ReadMem(64 bytes @ 0x2000DE80)
T8CE4 001:184.390    -- Updating C cache (64 bytes @ 0x2000DE80)
T8CE4 001:184.397    -- Read from C cache (32 bytes @ 0x2000DE88)
T8CE4 001:184.403   Data:  7F 80 7F 80 7F A5 80 7F 80 7F 80 7F 80 7F 80 7F ...
T8CE4 001:184.409 - 1.125ms returns 32 (0x20)
TCD10 001:223.551 JLINK_ReadMemEx(0x08000314, 0x2 Bytes, Flags = 0x02000000)
TCD10 001:223.577    -- Read from C cache (2 bytes @ 0x08000314)
TCD10 001:223.584   Data:  0C 48
TCD10 001:223.590 - 0.040ms returns 2 (0x2)
TCD10 001:223.596 JLINK_HasError()
TCD10 001:223.604 JLINK_SetBPEx(Addr = 0x08009E94, Type = 0xFFFFFFF2)
TCD10 001:223.609 - 0.005ms returns 0x00000001
TCD10 001:223.613 JLINK_HasError()
TCD10 001:223.618 JLINK_SetBPEx(Addr = 0x08009D7C, Type = 0xFFFFFFF2)
TCD10 001:223.622 - 0.003ms returns 0x00000002
TCD10 001:223.626 JLINK_HasError()
TCD10 001:223.630 JLINK_SetBPEx(Addr = 0x08009DDC, Type = 0xFFFFFFF2)
TCD10 001:223.634 - 0.004ms returns 0x00000003
TCD10 001:223.638 JLINK_HasError()
TCD10 001:223.642 JLINK_HasError()
TCD10 001:223.647 JLINK_Go()
TCD10 001:223.664   CPU_ReadMem(4 bytes @ 0xE0001000)
TCD10 001:224.372   CPU_WriteMem(4 bytes @ 0xE0002008)
TCD10 001:224.391   CPU_WriteMem(4 bytes @ 0xE000200C)
TCD10 001:224.397   CPU_WriteMem(4 bytes @ 0xE0002010)
TCD10 001:224.403   CPU_WriteMem(4 bytes @ 0xE0002014)
TCD10 001:224.409   CPU_WriteMem(4 bytes @ 0xE0002018)
TCD10 001:224.414   CPU_WriteMem(4 bytes @ 0xE000201C)
TCD10 001:225.478   CPU_WriteMem(4 bytes @ 0xE0001004)
TCD10 001:226.641   Memory map 'after startup completion point' is active
TCD10 001:226.658 - 3.010ms 
TCD10 001:327.142 JLINK_HasError()
TCD10 001:327.167 JLINK_IsHalted()
TCD10 001:329.077 - 1.908ms returns TRUE
TCD10 001:329.090 JLINK_HasError()
TCD10 001:329.098 JLINK_Halt()
TCD10 001:329.107 - 0.008ms returns 0x00
TCD10 001:329.115 JLINK_IsHalted()
TCD10 001:329.123 - 0.007ms returns TRUE
TCD10 001:329.132 JLINK_IsHalted()
TCD10 001:329.139 - 0.007ms returns TRUE
TCD10 001:329.147 JLINK_IsHalted()
TCD10 001:329.155 - 0.007ms returns TRUE
TCD10 001:329.164 JLINK_HasError()
TCD10 001:329.173 JLINK_ReadReg(R15 (PC))
TCD10 001:329.182 - 0.008ms returns 0x08009E94
TCD10 001:329.191 JLINK_ReadReg(XPSR)
TCD10 001:329.199 - 0.007ms returns 0x61000000
TCD10 001:329.209 JLINK_HasError()
TCD10 001:329.227 JLINK_ClrBPEx(BPHandle = 0x00000001)
TCD10 001:329.236 - 0.008ms returns 0x00
TCD10 001:329.245 JLINK_HasError()
TCD10 001:329.253 JLINK_ClrBPEx(BPHandle = 0x00000002)
TCD10 001:329.261 - 0.007ms returns 0x00
TCD10 001:329.270 JLINK_HasError()
TCD10 001:329.278 JLINK_ClrBPEx(BPHandle = 0x00000003)
TCD10 001:329.286 - 0.007ms returns 0x00
TCD10 001:329.294 JLINK_HasError()
TCD10 001:329.304 JLINK_HasError()
TCD10 001:329.313 JLINK_ReadMemU32(0xE000ED30, 0x1 Items)
TCD10 001:329.329   CPU_ReadMem(4 bytes @ 0xE000ED30)
TCD10 001:330.155   Data:  02 00 00 00
TCD10 001:330.169 - 0.855ms returns 1 (0x1)
TCD10 001:330.180 JLINK_ReadMemU32(0xE0001028, 0x1 Items)
TCD10 001:330.190   CPU_ReadMem(4 bytes @ 0xE0001028)
TCD10 001:330.981   Data:  00 00 00 00
TCD10 001:331.010   Debug reg: DWT_FUNC[0]
TCD10 001:331.023 - 0.843ms returns 1 (0x1)
TCD10 001:331.038 JLINK_ReadMemU32(0xE0001038, 0x1 Items)
TCD10 001:331.059   CPU_ReadMem(4 bytes @ 0xE0001038)
TCD10 001:331.943   Data:  00 02 00 00
TCD10 001:331.966   Debug reg: DWT_FUNC[1]
TCD10 001:331.979 - 0.940ms returns 1 (0x1)
TCD10 001:331.993 JLINK_ReadMemU32(0xE0001048, 0x1 Items)
TCD10 001:332.007   CPU_ReadMem(4 bytes @ 0xE0001048)
TCD10 001:332.723   Data:  00 00 00 00
TCD10 001:332.747   Debug reg: DWT_FUNC[2]
TCD10 001:332.760 - 0.767ms returns 1 (0x1)
TCD10 001:332.773 JLINK_ReadMemU32(0xE0001058, 0x1 Items)
TCD10 001:332.787   CPU_ReadMem(4 bytes @ 0xE0001058)
TCD10 001:333.430   Data:  00 00 00 00
TCD10 001:333.441   Debug reg: DWT_FUNC[3]
TCD10 001:333.447 - 0.674ms returns 1 (0x1)
TCD10 001:333.538 JLINK_HasError()
TCD10 001:333.545 JLINK_ReadReg(R0)
TCD10 001:333.550 - 0.004ms returns 0x2001B2D8
TCD10 001:333.555 JLINK_ReadReg(R1)
TCD10 001:333.558 - 0.003ms returns 0x2001B2D8
TCD10 001:333.563 JLINK_ReadReg(R2)
TCD10 001:333.567 - 0.003ms returns 0x2001B2D8
TCD10 001:333.571 JLINK_ReadReg(R3)
TCD10 001:333.575 - 0.003ms returns 0x2001B2D8
TCD10 001:333.579 JLINK_ReadReg(R4)
TCD10 001:333.583 - 0.003ms returns 0x00000000
TCD10 001:333.588 JLINK_ReadReg(R5)
TCD10 001:333.591 - 0.003ms returns 0x200005EC
TCD10 001:333.596 JLINK_ReadReg(R6)
TCD10 001:333.599 - 0.003ms returns 0x00000000
TCD10 001:333.604 JLINK_ReadReg(R7)
TCD10 001:333.608 - 0.003ms returns 0x00000000
TCD10 001:333.612 JLINK_ReadReg(R8)
TCD10 001:333.616 - 0.003ms returns 0x00000000
TCD10 001:333.620 JLINK_ReadReg(R9)
TCD10 001:333.624 - 0.003ms returns 0x00000000
TCD10 001:333.628 JLINK_ReadReg(R10)
TCD10 001:333.632 - 0.003ms returns 0x08019D2C
TCD10 001:333.637 JLINK_ReadReg(R11)
TCD10 001:333.641 - 0.003ms returns 0x00000000
TCD10 001:333.645 JLINK_ReadReg(R12)
TCD10 001:333.649 - 0.003ms returns 0x2000062C
TCD10 001:333.653 JLINK_ReadReg(R13 (SP))
TCD10 001:333.657 - 0.004ms returns 0x2001B6D8
TCD10 001:333.662 JLINK_ReadReg(R14)
TCD10 001:333.665 - 0.003ms returns 0x08000303
TCD10 001:333.674 JLINK_ReadReg(R15 (PC))
TCD10 001:333.680 - 0.006ms returns 0x08009E94
TCD10 001:333.685 JLINK_ReadReg(XPSR)
TCD10 001:333.689 - 0.003ms returns 0x61000000
TCD10 001:333.693 JLINK_ReadReg(MSP)
TCD10 001:333.697 - 0.003ms returns 0x2001B6D8
TCD10 001:333.701 JLINK_ReadReg(PSP)
TCD10 001:333.705 - 0.003ms returns 0x00000000
TCD10 001:333.709 JLINK_ReadReg(CFBP)
TCD10 001:333.713 - 0.003ms returns 0x04000000
TCD10 001:333.718 JLINK_ReadReg(FPSCR)
TCD10 001:335.859 - 2.140ms returns 0x03000000
TCD10 001:335.873 JLINK_ReadReg(FPS0)
TCD10 001:335.879 - 0.005ms returns 0x00000000
TCD10 001:335.883 JLINK_ReadReg(FPS1)
TCD10 001:335.887 - 0.003ms returns 0x00000000
TCD10 001:335.892 JLINK_ReadReg(FPS2)
TCD10 001:335.896 - 0.004ms returns 0x00000000
TCD10 001:335.900 JLINK_ReadReg(FPS3)
TCD10 001:335.904 - 0.003ms returns 0x00000000
TCD10 001:335.909 JLINK_ReadReg(FPS4)
TCD10 001:335.913 - 0.003ms returns 0x00000000
TCD10 001:335.917 JLINK_ReadReg(FPS5)
TCD10 001:335.921 - 0.003ms returns 0x00000000
TCD10 001:335.925 JLINK_ReadReg(FPS6)
TCD10 001:335.929 - 0.003ms returns 0x00000000
TCD10 001:335.934 JLINK_ReadReg(FPS7)
TCD10 001:335.938 - 0.003ms returns 0x00000000
TCD10 001:335.942 JLINK_ReadReg(FPS8)
TCD10 001:335.946 - 0.003ms returns 0x00000000
TCD10 001:335.951 JLINK_ReadReg(FPS9)
TCD10 001:335.955 - 0.004ms returns 0x00000000
TCD10 001:335.959 JLINK_ReadReg(FPS10)
TCD10 001:335.963 - 0.003ms returns 0x00000000
TCD10 001:335.967 JLINK_ReadReg(FPS11)
TCD10 001:335.971 - 0.003ms returns 0x00000000
TCD10 001:335.976 JLINK_ReadReg(FPS12)
TCD10 001:335.980 - 0.003ms returns 0x00000000
TCD10 001:335.984 JLINK_ReadReg(FPS13)
TCD10 001:335.988 - 0.003ms returns 0x00000000
TCD10 001:335.992 JLINK_ReadReg(FPS14)
TCD10 001:335.996 - 0.003ms returns 0x00000000
TCD10 001:336.001 JLINK_ReadReg(FPS15)
TCD10 001:336.005 - 0.003ms returns 0x00000000
TCD10 001:336.010 JLINK_ReadReg(FPS16)
TCD10 001:336.014 - 0.004ms returns 0x00000000
TCD10 001:336.019 JLINK_ReadReg(FPS17)
TCD10 001:336.023 - 0.003ms returns 0x00000000
TCD10 001:336.027 JLINK_ReadReg(FPS18)
TCD10 001:336.031 - 0.003ms returns 0x00000000
TCD10 001:336.035 JLINK_ReadReg(FPS19)
TCD10 001:336.039 - 0.003ms returns 0x00000000
TCD10 001:336.043 JLINK_ReadReg(FPS20)
TCD10 001:336.047 - 0.003ms returns 0x00000000
TCD10 001:336.052 JLINK_ReadReg(FPS21)
TCD10 001:336.056 - 0.003ms returns 0x00000000
TCD10 001:336.060 JLINK_ReadReg(FPS22)
TCD10 001:336.064 - 0.003ms returns 0x00000000
TCD10 001:336.068 JLINK_ReadReg(FPS23)
TCD10 001:336.072 - 0.003ms returns 0x00000000
TCD10 001:336.076 JLINK_ReadReg(FPS24)
TCD10 001:336.080 - 0.004ms returns 0x00000000
TCD10 001:336.085 JLINK_ReadReg(FPS25)
TCD10 001:336.089 - 0.003ms returns 0x00000000
TCD10 001:336.093 JLINK_ReadReg(FPS26)
TCD10 001:336.097 - 0.003ms returns 0x00000000
TCD10 001:336.101 JLINK_ReadReg(FPS27)
TCD10 001:336.105 - 0.003ms returns 0x00000000
TCD10 001:336.110 JLINK_ReadReg(FPS28)
TCD10 001:336.114 - 0.003ms returns 0x00000000
TCD10 001:336.118 JLINK_ReadReg(FPS29)
TCD10 001:336.122 - 0.003ms returns 0x00000000
TCD10 001:336.127 JLINK_ReadReg(FPS30)
TCD10 001:336.131 - 0.003ms returns 0x00000000
TCD10 001:336.135 JLINK_ReadReg(FPS31)
TCD10 001:336.139 - 0.003ms returns 0x00000000
T8CE4 001:337.453 JLINK_ReadMemEx(0x20000350, 0x4 Bytes, Flags = 0x02000000)
T8CE4 001:337.482   CPU_ReadMem(64 bytes @ 0x20000340)
T8CE4 001:338.291    -- Updating C cache (64 bytes @ 0x20000340)
T8CE4 001:338.304    -- Read from C cache (4 bytes @ 0x20000350)
T8CE4 001:338.310   Data:  00 00 00 68
T8CE4 001:338.317 - 0.865ms returns 4 (0x4)
T8CE4 001:338.365 JLINK_ReadMemEx(0x68000000, 0x20 Bytes, Flags = 0x02000000)
T8CE4 001:338.373   CPU_ReadMem(32 bytes @ 0x68000000)
T8CE4 001:339.026   Data:  00 00 00 00 00 00 00 00 00 00 00 00 00 00 00 00 ...
T8CE4 001:339.038 - 0.673ms returns 32 (0x20)
T8CE4 001:339.741 JLINK_ReadMemEx(0x20000350, 0x4 Bytes, Flags = 0x02000000)
T8CE4 001:339.751    -- Read from C cache (4 bytes @ 0x20000350)
T8CE4 001:339.805   Data:  00 00 00 68
T8CE4 001:339.811 - 0.070ms returns 4 (0x4)
T8CE4 001:339.831 JLINK_ReadMemEx(0x68000000, 0x20 Bytes, Flags = 0x02000000)
T8CE4 001:339.839   CPU_ReadMem(32 bytes @ 0x68000000)
T8CE4 001:340.380   Data:  00 00 00 00 00 00 00 00 00 00 00 00 00 00 00 00 ...
T8CE4 001:340.391 - 0.559ms returns 32 (0x20)
T8CE4 001:340.411 JLINK_ReadMemEx(0x2000DE88, 0x20 Bytes, Flags = 0x02000000)
T8CE4 001:340.419   CPU_ReadMem(64 bytes @ 0x2000DE80)
T8CE4 001:341.210    -- Updating C cache (64 bytes @ 0x2000DE80)
T8CE4 001:341.221    -- Read from C cache (32 bytes @ 0x2000DE88)
T8CE4 001:341.228   Data:  00 00 00 00 00 00 00 00 00 00 00 00 00 00 00 00 ...
T8CE4 001:341.234 - 0.822ms returns 32 (0x20)
T8CE4 001:341.680 JLINK_ReadMemEx(0x08009E94, 0x3C Bytes, Flags = 0x02000000)
T8CE4 001:341.692   CPU_ReadMem(128 bytes @ 0x08009E80)
T8CE4 001:342.764    -- Updating C cache (128 bytes @ 0x08009E80)
T8CE4 001:342.775    -- Read from C cache (60 bytes @ 0x08009E94)
T8CE4 001:342.782   Data:  80 B5 82 B0 F8 F7 40 F9 4F F4 A8 70 08 21 02 22 ...
T8CE4 001:342.788 - 1.108ms returns 60 (0x3C)
T8CE4 001:342.795 JLINK_ReadMemEx(0x08009E94, 0x2 Bytes, Flags = 0x02000000)
T8CE4 001:342.800    -- Read from C cache (2 bytes @ 0x08009E94)
T8CE4 001:342.806   Data:  80 B5
T8CE4 001:342.812 - 0.016ms returns 2 (0x2)
T8CE4 001:342.817 JLINK_ReadMemEx(0x08009E96, 0x2 Bytes, Flags = 0x02000000)
T8CE4 001:342.821    -- Read from C cache (2 bytes @ 0x08009E96)
T8CE4 001:342.827   Data:  82 B0
T8CE4 001:342.832 - 0.015ms returns 2 (0x2)
T8CE4 001:342.843 JLINK_ReadMemEx(0x08009E96, 0x2 Bytes, Flags = 0x02000000)
T8CE4 001:342.848    -- Read from C cache (2 bytes @ 0x08009E96)
T8CE4 001:342.853   Data:  82 B0
T8CE4 001:342.859 - 0.015ms returns 2 (0x2)
T8CE4 001:342.864 JLINK_ReadMemEx(0x08009E98, 0x3C Bytes, Flags = 0x02000000)
T8CE4 001:342.868    -- Read from C cache (60 bytes @ 0x08009E98)
T8CE4 001:342.875   Data:  F8 F7 40 F9 4F F4 A8 70 08 21 02 22 07 23 01 F0 ...
T8CE4 001:342.880 - 0.016ms returns 60 (0x3C)
T8CE4 001:342.885 JLINK_ReadMemEx(0x08009E98, 0x2 Bytes, Flags = 0x02000000)
T8CE4 001:342.889    -- Read from C cache (2 bytes @ 0x08009E98)
T8CE4 001:342.895   Data:  F8 F7
T8CE4 001:342.900 - 0.015ms returns 2 (0x2)
TCD10 005:543.075 JLINK_ReadMemEx(0x08009E94, 0x2 Bytes, Flags = 0x02000000)
TCD10 005:543.110    -- Read from C cache (2 bytes @ 0x08009E94)
TCD10 005:543.121   Data:  80 B5
TCD10 005:543.131 - 0.056ms returns 2 (0x2)
TCD10 005:543.140 JLINK_HasError()
TCD10 005:543.151 JLINK_SetBPEx(Addr = 0x08009D7C, Type = 0xFFFFFFF2)
TCD10 005:543.160 - 0.009ms returns 0x00000004
TCD10 005:543.167 JLINK_HasError()
TCD10 005:543.175 JLINK_SetBPEx(Addr = 0x08009DDC, Type = 0xFFFFFFF2)
TCD10 005:543.181 - 0.006ms returns 0x00000005
TCD10 005:543.189 JLINK_HasError()
TCD10 005:543.196 JLINK_SetBPEx(Addr = 0x08009C5C, Type = 0xFFFFFFF2)
TCD10 005:543.203 - 0.006ms returns 0x00000006
TCD10 005:543.210 JLINK_HasError()
TCD10 005:543.218 JLINK_HasError()
TCD10 005:543.226 JLINK_Go()
TCD10 005:543.967   CPU_ReadMem(4 bytes @ 0xE0001000)
TCD10 005:544.671   CPU_WriteMem(4 bytes @ 0xE0002008)
TCD10 005:544.692   CPU_WriteMem(4 bytes @ 0xE000200C)
TCD10 005:544.702   CPU_WriteMem(4 bytes @ 0xE0002010)
TCD10 005:546.303 - 3.076ms 
TCD10 005:646.585 JLINK_HasError()
TCD10 005:646.639 JLINK_IsHalted()
TCD10 005:647.537 - 0.895ms returns FALSE
TCD10 005:748.623 JLINK_HasError()
TCD10 005:748.654 JLINK_IsHalted()
TCD10 005:749.470 - 0.815ms returns FALSE
TCD10 005:850.798 JLINK_HasError()
TCD10 005:850.820 JLINK_IsHalted()
TCD10 005:853.155 - 2.334ms returns TRUE
TCD10 005:853.177 JLINK_HasError()
TCD10 005:853.183 JLINK_Halt()
TCD10 005:853.187 - 0.004ms returns 0x00
TCD10 005:853.192 JLINK_IsHalted()
TCD10 005:853.196 - 0.004ms returns TRUE
TCD10 005:853.201 JLINK_IsHalted()
TCD10 005:853.205 - 0.003ms returns TRUE
TCD10 005:853.209 JLINK_IsHalted()
TCD10 005:853.213 - 0.003ms returns TRUE
TCD10 005:853.218 JLINK_HasError()
TCD10 005:853.224 JLINK_ReadReg(R15 (PC))
TCD10 005:853.239 - 0.015ms returns 0x08009C5C
TCD10 005:853.244 JLINK_ReadReg(XPSR)
TCD10 005:853.248 - 0.003ms returns 0x01000000
TCD10 005:853.257 JLINK_HasError()
TCD10 005:853.261 JLINK_ClrBPEx(BPHandle = 0x00000004)
TCD10 005:853.266 - 0.004ms returns 0x00
TCD10 005:853.271 JLINK_HasError()
TCD10 005:853.275 JLINK_ClrBPEx(BPHandle = 0x00000005)
TCD10 005:853.279 - 0.004ms returns 0x00
TCD10 005:853.284 JLINK_HasError()
TCD10 005:853.288 JLINK_ClrBPEx(BPHandle = 0x00000006)
TCD10 005:853.292 - 0.003ms returns 0x00
TCD10 005:853.297 JLINK_HasError()
TCD10 005:853.301 JLINK_HasError()
TCD10 005:853.306 JLINK_ReadMemU32(0xE000ED30, 0x1 Items)
TCD10 005:853.316   CPU_ReadMem(4 bytes @ 0xE000ED30)
TCD10 005:854.022   Data:  02 00 00 00
TCD10 005:854.037 - 0.730ms returns 1 (0x1)
TCD10 005:854.044 JLINK_ReadMemU32(0xE0001028, 0x1 Items)
TCD10 005:854.051   CPU_ReadMem(4 bytes @ 0xE0001028)
TCD10 005:854.785   Data:  00 00 00 00
TCD10 005:854.798   Debug reg: DWT_FUNC[0]
TCD10 005:854.804 - 0.759ms returns 1 (0x1)
TCD10 005:854.811 JLINK_ReadMemU32(0xE0001038, 0x1 Items)
TCD10 005:854.817   CPU_ReadMem(4 bytes @ 0xE0001038)
TCD10 005:855.663   Data:  00 02 00 00
TCD10 005:855.675   Debug reg: DWT_FUNC[1]
TCD10 005:855.681 - 0.870ms returns 1 (0x1)
TCD10 005:855.688 JLINK_ReadMemU32(0xE0001048, 0x1 Items)
TCD10 005:855.695   CPU_ReadMem(4 bytes @ 0xE0001048)
TCD10 005:856.317   Data:  00 00 00 00
TCD10 005:856.354   Debug reg: DWT_FUNC[2]
TCD10 005:856.360 - 0.672ms returns 1 (0x1)
TCD10 005:856.367 JLINK_ReadMemU32(0xE0001058, 0x1 Items)
TCD10 005:856.373   CPU_ReadMem(4 bytes @ 0xE0001058)
TCD10 005:856.973   Data:  00 00 00 00
TCD10 005:856.983   Debug reg: DWT_FUNC[3]
TCD10 005:856.989 - 0.622ms returns 1 (0x1)
TCD10 005:857.071 JLINK_HasError()
TCD10 005:857.078 JLINK_ReadReg(R0)
TCD10 005:857.083 - 0.004ms returns 0x00000000
TCD10 005:857.087 JLINK_ReadReg(R1)
TCD10 005:857.091 - 0.003ms returns 0xA5A5A5A5
TCD10 005:857.095 JLINK_ReadReg(R2)
TCD10 005:857.099 - 0.003ms returns 0xA5A5A5A5
TCD10 005:857.104 JLINK_ReadReg(R3)
TCD10 005:857.107 - 0.003ms returns 0xA5A5A5A5
TCD10 005:857.112 JLINK_ReadReg(R4)
TCD10 005:857.116 - 0.003ms returns 0xA5A5A5A5
TCD10 005:857.120 JLINK_ReadReg(R5)
TCD10 005:857.124 - 0.003ms returns 0xA5A5A5A5
TCD10 005:857.128 JLINK_ReadReg(R6)
TCD10 005:857.132 - 0.003ms returns 0xA5A5A5A5
TCD10 005:857.137 JLINK_ReadReg(R7)
TCD10 005:857.141 - 0.003ms returns 0xA5A5A5A5
TCD10 005:857.145 JLINK_ReadReg(R8)
TCD10 005:857.149 - 0.003ms returns 0xA5A5A5A5
TCD10 005:857.153 JLINK_ReadReg(R9)
TCD10 005:857.157 - 0.003ms returns 0xA5A5A5A5
TCD10 005:857.161 JLINK_ReadReg(R10)
TCD10 005:857.165 - 0.003ms returns 0xA5A5A5A5
TCD10 005:857.169 JLINK_ReadReg(R11)
TCD10 005:857.173 - 0.003ms returns 0xA5A5A5A5
TCD10 005:857.177 JLINK_ReadReg(R12)
TCD10 005:857.181 - 0.003ms returns 0xA5A5A5A5
TCD10 005:857.186 JLINK_ReadReg(R13 (SP))
TCD10 005:857.190 - 0.004ms returns 0x20011CC0
TCD10 005:857.194 JLINK_ReadReg(R14)
TCD10 005:857.198 - 0.003ms returns 0x08009E8F
TCD10 005:857.203 JLINK_ReadReg(R15 (PC))
TCD10 005:857.207 - 0.003ms returns 0x08009C5C
TCD10 005:857.211 JLINK_ReadReg(XPSR)
TCD10 005:857.215 - 0.003ms returns 0x01000000
TCD10 005:857.219 JLINK_ReadReg(MSP)
TCD10 005:857.223 - 0.003ms returns 0x2001B6B8
TCD10 005:857.227 JLINK_ReadReg(PSP)
TCD10 005:857.231 - 0.003ms returns 0x20011CC0
TCD10 005:857.236 JLINK_ReadReg(CFBP)
TCD10 005:857.239 - 0.003ms returns 0x02000000
TCD10 005:857.244 JLINK_ReadReg(FPSCR)
TCD10 005:859.548 - 2.303ms returns 0x00000000
TCD10 005:859.559 JLINK_ReadReg(FPS0)
TCD10 005:859.564 - 0.004ms returns 0x00000F47
TCD10 005:859.569 JLINK_ReadReg(FPS1)
TCD10 005:859.573 - 0.003ms returns 0x4378575E
TCD10 005:859.577 JLINK_ReadReg(FPS2)
TCD10 005:859.581 - 0.003ms returns 0x45747600
TCD10 005:859.585 JLINK_ReadReg(FPS3)
TCD10 005:859.589 - 0.003ms returns 0x00000000
TCD10 005:859.593 JLINK_ReadReg(FPS4)
TCD10 005:859.597 - 0.003ms returns 0x00000000
TCD10 005:859.602 JLINK_ReadReg(FPS5)
TCD10 005:859.611 - 0.008ms returns 0x00000000
TCD10 005:859.615 JLINK_ReadReg(FPS6)
TCD10 005:859.619 - 0.003ms returns 0x00000000
TCD10 005:859.623 JLINK_ReadReg(FPS7)
TCD10 005:859.627 - 0.003ms returns 0x00000000
TCD10 005:859.632 JLINK_ReadReg(FPS8)
TCD10 005:859.636 - 0.003ms returns 0x00000000
TCD10 005:859.641 JLINK_ReadReg(FPS9)
TCD10 005:859.645 - 0.003ms returns 0x00000000
TCD10 005:859.649 JLINK_ReadReg(FPS10)
TCD10 005:859.653 - 0.003ms returns 0x00000000
TCD10 005:859.657 JLINK_ReadReg(FPS11)
TCD10 005:859.661 - 0.003ms returns 0x00000000
TCD10 005:859.665 JLINK_ReadReg(FPS12)
TCD10 005:859.669 - 0.003ms returns 0x00000000
TCD10 005:859.673 JLINK_ReadReg(FPS13)
TCD10 005:859.677 - 0.003ms returns 0x00000000
TCD10 005:859.682 JLINK_ReadReg(FPS14)
TCD10 005:859.686 - 0.003ms returns 0x00000000
TCD10 005:859.690 JLINK_ReadReg(FPS15)
TCD10 005:859.694 - 0.003ms returns 0x00000000
TCD10 005:859.698 JLINK_ReadReg(FPS16)
TCD10 005:859.702 - 0.003ms returns 0x00000000
TCD10 005:859.707 JLINK_ReadReg(FPS17)
TCD10 005:859.710 - 0.003ms returns 0x00000000
TCD10 005:859.715 JLINK_ReadReg(FPS18)
TCD10 005:859.719 - 0.003ms returns 0x00000000
TCD10 005:859.723 JLINK_ReadReg(FPS19)
TCD10 005:859.727 - 0.003ms returns 0x00000000
TCD10 005:859.731 JLINK_ReadReg(FPS20)
TCD10 005:859.735 - 0.003ms returns 0x00000000
TCD10 005:859.739 JLINK_ReadReg(FPS21)
TCD10 005:859.743 - 0.003ms returns 0x00000000
TCD10 005:859.748 JLINK_ReadReg(FPS22)
TCD10 005:859.751 - 0.003ms returns 0x00000000
TCD10 005:859.756 JLINK_ReadReg(FPS23)
TCD10 005:859.760 - 0.003ms returns 0x00000000
TCD10 005:859.764 JLINK_ReadReg(FPS24)
TCD10 005:859.768 - 0.003ms returns 0x00000000
TCD10 005:859.773 JLINK_ReadReg(FPS25)
TCD10 005:859.776 - 0.003ms returns 0x00000000
TCD10 005:859.781 JLINK_ReadReg(FPS26)
TCD10 005:859.785 - 0.003ms returns 0x00000000
TCD10 005:859.789 JLINK_ReadReg(FPS27)
TCD10 005:859.793 - 0.003ms returns 0x00000000
TCD10 005:859.797 JLINK_ReadReg(FPS28)
TCD10 005:859.801 - 0.003ms returns 0x00000000
TCD10 005:859.805 JLINK_ReadReg(FPS29)
TCD10 005:859.809 - 0.003ms returns 0x00000000
TCD10 005:859.813 JLINK_ReadReg(FPS30)
TCD10 005:859.817 - 0.003ms returns 0x00000000
TCD10 005:859.821 JLINK_ReadReg(FPS31)
TCD10 005:859.825 - 0.003ms returns 0x00000000
T8CE4 005:860.396 JLINK_ReadMemEx(0x20011CCC, 0x4 Bytes, Flags = 0x02000000)
T8CE4 005:860.408   CPU_ReadMem(64 bytes @ 0x20011CC0)
T8CE4 005:861.154    -- Updating C cache (64 bytes @ 0x20011CC0)
T8CE4 005:861.166    -- Read from C cache (4 bytes @ 0x20011CCC)
T8CE4 005:861.172   Data:  D9 B0 00 08
T8CE4 005:861.178 - 0.782ms returns 4 (0x4)
T8CE4 005:861.243 JLINK_ReadMemEx(0x20011CC8, 0x4 Bytes, Flags = 0x02000000)
T8CE4 005:861.249    -- Read from C cache (4 bytes @ 0x20011CC8)
T8CE4 005:861.254   Data:  A5 A5 A5 A5
T8CE4 005:861.260 - 0.017ms returns 4 (0x4)
T8CE4 005:861.265 JLINK_ReadMemEx(0x20011CCC, 0x4 Bytes, Flags = 0x02000000)
T8CE4 005:861.269    -- Read from C cache (4 bytes @ 0x20011CCC)
T8CE4 005:861.275   Data:  D9 B0 00 08
T8CE4 005:861.281 - 0.015ms returns 4 (0x4)
T8CE4 005:861.288 JLINK_ReadMemEx(0x20011CDC, 0x4 Bytes, Flags = 0x02000000)
T8CE4 005:861.293    -- Read from C cache (4 bytes @ 0x20011CDC)
T8CE4 005:861.298   Data:  68 00 00 80
T8CE4 005:861.304 - 0.015ms returns 4 (0x4)
T8CE4 005:861.309 JLINK_ReadMemEx(0x20011CD8, 0x4 Bytes, Flags = 0x02000000)
T8CE4 005:861.313    -- Read from C cache (4 bytes @ 0x20011CD8)
T8CE4 005:861.318   Data:  00 00 00 00
T8CE4 005:861.324 - 0.015ms returns 4 (0x4)
T8CE4 005:861.329 JLINK_ReadMemEx(0x20011CDC, 0x4 Bytes, Flags = 0x02000000)
T8CE4 005:861.333    -- Read from C cache (4 bytes @ 0x20011CDC)
T8CE4 005:861.338   Data:  68 00 00 80
T8CE4 005:861.343 - 0.015ms returns 4 (0x4)
T8CE4 005:862.465 JLINK_ReadMemEx(0x20011D18, 0x4 Bytes, Flags = 0x02000000)
T8CE4 005:862.477   CPU_ReadMem(64 bytes @ 0x20011D00)
T8CE4 005:863.083    -- Updating C cache (64 bytes @ 0x20011D00)
T8CE4 005:863.094    -- Read from C cache (4 bytes @ 0x20011D18)
T8CE4 005:863.104   Data:  74 61 73 6B
T8CE4 005:863.110 - 0.646ms returns 4 (0x4)
T8CE4 005:863.119 JLINK_ReadMemEx(0x20011D14, 0x4 Bytes, Flags = 0x02000000)
T8CE4 005:863.125    -- Read from C cache (4 bytes @ 0x20011D14)
T8CE4 005:863.130   Data:  6C 65 64 5F
T8CE4 005:863.153 - 0.033ms returns 4 (0x4)
T8CE4 005:863.160 JLINK_ReadMemEx(0x20011D10, 0x4 Bytes, Flags = 0x02000000)
T8CE4 005:863.165    -- Read from C cache (4 bytes @ 0x20011D10)
T8CE4 005:863.172   Data:  D8 FC 00 20
T8CE4 005:863.179 - 0.019ms returns 4 (0x4)
T8CE4 005:863.186 JLINK_ReadMemEx(0x20011D0C, 0x4 Bytes, Flags = 0x02000000)
T8CE4 005:863.192    -- Read from C cache (4 bytes @ 0x20011D0C)
T8CE4 005:863.199   Data:  05 00 00 00
T8CE4 005:863.207 - 0.020ms returns 4 (0x4)
T8CE4 005:863.214 JLINK_ReadMemEx(0x20011D08, 0x4 Bytes, Flags = 0x02000000)
T8CE4 005:863.219    -- Read from C cache (4 bytes @ 0x20011D08)
T8CE4 005:863.227   Data:  00 00 00 00
T8CE4 005:863.233 - 0.020ms returns 4 (0x4)
T8CE4 005:863.239 JLINK_ReadMemEx(0x20011D04, 0x4 Bytes, Flags = 0x02000000)
T8CE4 005:863.245    -- Read from C cache (4 bytes @ 0x20011D04)
T8CE4 005:863.252   Data:  E0 1C 01 20
T8CE4 005:863.259 - 0.019ms returns 4 (0x4)
T8CE4 005:863.264 JLINK_ReadMemEx(0x20011D03, 0x1 Bytes, Flags = 0x02000000)
T8CE4 005:863.268    -- Read from C cache (1 bytes @ 0x20011D03)
T8CE4 005:863.274   Data:  00
T8CE4 005:863.279 - 0.015ms returns 1 (0x1)
T8CE4 005:863.332 JLINK_ReadMemEx(0x20011D20, 0x20 Bytes, Flags = 0x02000000)
T8CE4 005:863.337    -- Read from C cache (32 bytes @ 0x20011D20)
T8CE4 005:863.343   Data:  00 00 00 00 04 00 00 00 00 00 00 00 05 00 00 00 ...
T8CE4 005:863.348 - 0.016ms returns 32 (0x20)
T8CE4 005:863.749 JLINK_ReadMemEx(0x20011D18, 0x4 Bytes, Flags = 0x02000000)
T8CE4 005:863.758    -- Read from C cache (4 bytes @ 0x20011D18)
T8CE4 005:863.764   Data:  74 61 73 6B
T8CE4 005:863.769 - 0.020ms returns 4 (0x4)
T8CE4 005:863.775 JLINK_ReadMemEx(0x20011D14, 0x4 Bytes, Flags = 0x02000000)
T8CE4 005:863.779    -- Read from C cache (4 bytes @ 0x20011D14)
T8CE4 005:863.785   Data:  6C 65 64 5F
T8CE4 005:863.790 - 0.015ms returns 4 (0x4)
T8CE4 005:863.795 JLINK_ReadMemEx(0x20011D10, 0x4 Bytes, Flags = 0x02000000)
T8CE4 005:863.799    -- Read from C cache (4 bytes @ 0x20011D10)
T8CE4 005:863.805   Data:  D8 FC 00 20
T8CE4 005:863.810 - 0.015ms returns 4 (0x4)
T8CE4 005:863.815 JLINK_ReadMemEx(0x20011D0C, 0x4 Bytes, Flags = 0x02000000)
T8CE4 005:863.819    -- Read from C cache (4 bytes @ 0x20011D0C)
T8CE4 005:863.825   Data:  05 00 00 00
T8CE4 005:863.830 - 0.015ms returns 4 (0x4)
T8CE4 005:863.835 JLINK_ReadMemEx(0x20011D08, 0x4 Bytes, Flags = 0x02000000)
T8CE4 005:863.839    -- Read from C cache (4 bytes @ 0x20011D08)
T8CE4 005:863.845   Data:  00 00 00 00
T8CE4 005:863.850 - 0.015ms returns 4 (0x4)
T8CE4 005:863.855 JLINK_ReadMemEx(0x20011D04, 0x4 Bytes, Flags = 0x02000000)
T8CE4 005:863.859    -- Read from C cache (4 bytes @ 0x20011D04)
T8CE4 005:863.865   Data:  E0 1C 01 20
T8CE4 005:863.870 - 0.015ms returns 4 (0x4)
T8CE4 005:863.875 JLINK_ReadMemEx(0x20011D03, 0x1 Bytes, Flags = 0x02000000)
T8CE4 005:863.879    -- Read from C cache (1 bytes @ 0x20011D03)
T8CE4 005:863.884   Data:  00
T8CE4 005:863.890 - 0.015ms returns 1 (0x1)
T8CE4 005:863.913 JLINK_ReadMemEx(0x20011D20, 0x20 Bytes, Flags = 0x02000000)
T8CE4 005:863.918    -- Read from C cache (32 bytes @ 0x20011D20)
T8CE4 005:863.924   Data:  00 00 00 00 04 00 00 00 00 00 00 00 05 00 00 00 ...
T8CE4 005:863.929 - 0.016ms returns 32 (0x20)
T8CE4 005:863.951 JLINK_ReadMemEx(0x20000350, 0x4 Bytes, Flags = 0x02000000)
T8CE4 005:863.958   CPU_ReadMem(64 bytes @ 0x20000340)
T8CE4 005:864.577    -- Updating C cache (64 bytes @ 0x20000340)
T8CE4 005:864.583    -- Read from C cache (4 bytes @ 0x20000350)
T8CE4 005:864.589   Data:  00 00 00 68
T8CE4 005:864.595 - 0.643ms returns 4 (0x4)
T8CE4 005:864.610 JLINK_ReadMemEx(0x68000000, 0x20 Bytes, Flags = 0x02000000)
T8CE4 005:864.616   CPU_ReadMem(32 bytes @ 0x68000000)
T8CE4 005:865.236   Data:  01 00 00 00 34 00 00 00 F8 7C 01 08 01 00 00 00 ...
T8CE4 005:865.242 - 0.631ms returns 32 (0x20)
T8CE4 005:866.517 JLINK_ReadMemEx(0x20000350, 0x4 Bytes, Flags = 0x02000000)
T8CE4 005:866.527    -- Read from C cache (4 bytes @ 0x20000350)
T8CE4 005:866.533   Data:  00 00 00 68
T8CE4 005:866.538 - 0.021ms returns 4 (0x4)
T8CE4 005:866.557 JLINK_ReadMemEx(0x68000000, 0x20 Bytes, Flags = 0x02000000)
T8CE4 005:866.564   CPU_ReadMem(32 bytes @ 0x68000000)
T8CE4 005:867.128   Data:  01 00 00 00 34 00 00 00 F8 7C 01 08 01 00 00 00 ...
T8CE4 005:867.134 - 0.577ms returns 32 (0x20)
T8CE4 005:867.405 JLINK_ReadMemEx(0x2000DE88, 0x20 Bytes, Flags = 0x02000000)
T8CE4 005:867.414   CPU_ReadMem(64 bytes @ 0x2000DE80)
T8CE4 005:868.055    -- Updating C cache (64 bytes @ 0x2000DE80)
T8CE4 005:868.061    -- Read from C cache (32 bytes @ 0x2000DE88)
T8CE4 005:868.067   Data:  00 00 00 00 00 00 00 00 00 00 00 00 00 00 00 00 ...
T8CE4 005:868.073 - 0.668ms returns 32 (0x20)
T8CE4 005:868.098 JLINK_ReadMemEx(0x20011D03, 0x1 Bytes, Flags = 0x02000000)
T8CE4 005:868.103    -- Read from C cache (1 bytes @ 0x20011D03)
T8CE4 005:868.108   Data:  00
T8CE4 005:868.114 - 0.016ms returns 1 (0x1)
T8CE4 005:868.131 JLINK_ReadMemEx(0x20011D03, 0x1 Bytes, Flags = 0x02000000)
T8CE4 005:868.135    -- Read from C cache (1 bytes @ 0x20011D03)
T8CE4 005:868.141   Data:  00
T8CE4 005:868.146 - 0.015ms returns 1 (0x1)
T8CE4 005:872.300 JLINK_ReadMemEx(0x08009C5C, 0x3C Bytes, Flags = 0x02000000)
T8CE4 005:872.328   CPU_ReadMem(128 bytes @ 0x08009C40)
T8CE4 005:873.405    -- Updating C cache (128 bytes @ 0x08009C40)
T8CE4 005:873.416    -- Read from C cache (60 bytes @ 0x08009C5C)
T8CE4 005:873.423   Data:  2D E9 F0 4F AD F5 01 5D 89 B0 0D F1 20 0E 0E F5 ...
